
T20EC 000:051 SEGGER J-Link V6.44d Log File (0000ms, 0023ms total)
T20EC 000:051 DLL Compiled: Mar 27 2019 17:08:23 (0000ms, 0023ms total)
T20EC 000:051 Logging started @ 2019-09-23 08:51 (0000ms, 0023ms total)
T20EC 000:051 JLINK_SetWarnOutHandler(...) (0000ms, 0023ms total)
T20EC 000:051 JLINK_OpenEx(...)
Firmware: J-Link ARM-OB STM32 compiled Aug 22 2012 19:52:04
Hardware: V7.00
S/N: 20090928
Feature(s): RDI,FlashDL,FlashBP,JFlash,GDB
TELNET listener socket opened on port 19021WEBSRV 
Starting webserver (0015ms, 0038ms total)
T20EC 000:051 WEBSRV Webserver running on local port 19080 (0015ms, 0038ms total)
T20EC 000:051   returns O.K. (0015ms, 0038ms total)
T20EC 000:066 JLINK_SetErrorOutHandler(...) (0000ms, 0038ms total)
T20EC 000:066 JLINK_ExecCommand("ProjectFile = "T:\OneDrive\SoundSimulator2\EssEvSoco\Frimware\SDK15.3\examples\ble_peripheral\ble_app_buttonless_dfu\pca10040\s132\arm5_no_packs\JLinkSettings.ini"", ...). Ref file found at: C:\Keil_v5\ARM\Segger\JLinkDevices.ref (0019ms, 0057ms total)
T20EC 000:066 XML referenced by ref file: C:\Program Files (x86)\SEGGER\JLink_V644d\JLinkDevices.xml (0019ms, 0057ms total)
T20EC 000:066 C:\Program Files (x86)\SEGGER\JLink_V644d\JLinkDevices.xml evaluated successfully.  returns 0x00 (0136ms, 0174ms total)
T20EC 000:202 JLINK_ExecCommand("Device = nRF52832_xxAA", ...). Device "NRF52832_XXAA" selected.  returns 0x00 (0015ms, 0189ms total)
T20EC 000:217 JLINK_ExecCommand("DisableConnectionTimeout", ...).   returns 0x01 (0000ms, 0189ms total)
T20EC 000:217 JLINK_GetHardwareVersion()  returns 0x11170 (0000ms, 0189ms total)
T20EC 000:217 JLINK_GetDLLVersion()  returns 64404 (0001ms, 0190ms total)
T20EC 000:218 JLINK_GetFirmwareString(...) (0000ms, 0190ms total)
T20EC 000:218 JLINK_GetDLLVersion()  returns 64404 (0000ms, 0190ms total)
T20EC 000:218 JLINK_GetCompileDateTime() (0000ms, 0190ms total)
T20EC 000:218 JLINK_GetFirmwareString(...) (0000ms, 0190ms total)
T20EC 000:218 JLINK_GetHardwareVersion()  returns 0x11170 (0000ms, 0190ms total)
T20EC 000:218 JLINK_TIF_Select(JLINKARM_TIF_SWD)  returns 0x00 (0002ms, 0192ms total)
T20EC 000:220 JLINK_SetSpeed(5000) (0001ms, 0193ms total)
T20EC 000:221 JLINK_GetId() >0x10B TIF>Found SW-DP with ID 0x2BA01477 >0x0D TIF> >0x28 TIF> >0x0D TIF> >0x28 TIF> >0x0D TIF> >0x28 TIF> >0x0D TIF> >0x28 TIF> >0x0D TIF> >0x28 TIF> >0x0D TIF> >0x28 TIF> >0x35 TIF> >0x35 TIF> >0x0D TIF> >0x28 TIF> >0x35 TIF> >0x35 TIF> >0x10B TIF>Found SW-DP with ID 0x2BA01477 >0x0D TIF> >0x28 TIF> >0x0D TIF> >0x28 TIF> >0x0D TIF> >0x28 TIF> >0x0D TIF> >0x28 TIF> >0x35 TIF> >0x0D TIF> >0x28 TIF>Scanning AP map to find all available APs >0x0D TIF> >0x28 TIF> >0x35 TIF>
 >0x35 TIF> >0x0D TIF> >0x28 TIF> >0x35 TIF> >0x35 TIF> >0x0D TIF> >0x28 TIF> >0x35 TIF> >0x35 TIF>AP[2]: Stopped AP scan as end of AP map has been reachedAP[0]: AHB-AP (IDR: 0x24770011)AP[1]: JTAG-AP (IDR: 0x02880000)Iterating through AP map to find AHB-AP to use >0x42 TIF> >0x28 TIF> >0x0D TIF> >0x28 TIF> >0x35 TIF> >0x35 TIF> >0x42 TIF> >0x28 TIF> >0x0D TIF> >0x28 TIF> >0x0D TIF> >0x28 TIF> >0x35 TIF> >0x35 TIF>AP[0]: Core foundAP[0]: AHB-AP ROM base: 0xE00FF000 >0x0D TIF> >0x28 TIF> >0x0D TIF>
 >0x28 TIF> >0x0D TIF> >0x28 TIF> >0x35 TIF> >0x35 TIF>CPUID register: 0x410FC241. Implementer code: 0x41 (ARM)Found Cortex-M4 r0p1, Little endian. -- Max. mem block: 0x00002C18 -- CPU_ReadMem(4 bytes @ 0xE000EDF0) -- CPU_WriteMem(4 bytes @ 0xE000EDF0) -- CPU_ReadMem(4 bytes @ 0xE0002000)FPUnit: 6 code (BP) slots and 2 literal slots -- CPU_ReadMem(4 bytes @ 0xE000EDFC) -- CPU_WriteMem(4 bytes @ 0xE000EDFC) -- CPU_ReadMem(4 bytes @ 0xE0001000) -- CPU_WriteMem(4 bytes @ 0xE0001000)
 -- CPU_ReadMem(4 bytes @ 0xE000ED88) -- CPU_WriteMem(4 bytes @ 0xE000ED88) -- CPU_ReadMem(4 bytes @ 0xE000ED88) -- CPU_WriteMem(4 bytes @ 0xE000ED88)CoreSight components:ROMTbl[0] @ E00FF000 -- CPU_ReadMem(16 bytes @ 0xE00FF000) -- CPU_ReadMem(16 bytes @ 0xE000EFF0) -- CPU_ReadMem(16 bytes @ 0xE000EFE0)ROMTbl[0][0]: E000E000, CID: B105E00D, PID: 000BB00C SCS-M7 -- CPU_ReadMem(16 bytes @ 0xE0001FF0) -- CPU_ReadMem(16 bytes @ 0xE0001FE0)ROMTbl[0][1]: E0001000, CID: B105E00D, PID: 003BB002 DWT
 -- CPU_ReadMem(16 bytes @ 0xE0002FF0) -- CPU_ReadMem(16 bytes @ 0xE0002FE0)ROMTbl[0][2]: E0002000, CID: B105E00D, PID: 002BB003 FPB -- CPU_ReadMem(16 bytes @ 0xE0000FF0) -- CPU_ReadMem(16 bytes @ 0xE0000FE0)ROMTbl[0][3]: E0000000, CID: B105E00D, PID: 003BB001 ITM -- CPU_ReadMem(16 bytes @ 0xE00FF010) -- CPU_ReadMem(16 bytes @ 0xE0040FF0) -- CPU_ReadMem(16 bytes @ 0xE0040FE0)ROMTbl[0][4]: E0040000, CID: B105900D, PID: 000BB9A1 TPIU -- CPU_ReadMem(16 bytes @ 0xE0041FF0)
 -- CPU_ReadMem(16 bytes @ 0xE0041FE0)ROMTbl[0][5]: E0041000, CID: B105900D, PID: 000BB925 ETM >0x35 TIF>  returns 0x2BA01477 (0195ms, 0388ms total)
T20EC 000:416 JLINK_GetDLLVersion()  returns 64404 (0000ms, 0388ms total)
T20EC 000:416 JLINK_CORE_GetFound()  returns 0xE0000FF (0000ms, 0388ms total)
T20EC 000:416 JLINK_GetDebugInfo(0x100 = JLINKARM_ROM_TABLE_ADDR_INDEX) -- Value=0xE00FF000  returns 0x00 (0000ms, 0388ms total)
T20EC 000:416 JLINK_GetDebugInfo(0x100 = JLINKARM_ROM_TABLE_ADDR_INDEX) -- Value=0xE00FF000  returns 0x00 (0000ms, 0388ms total)
T20EC 000:416 JLINK_GetDebugInfo(0x101 = JLINKARM_DEBUG_INFO_ETM_ADDR_INDEX) -- Value=0xE0041000  returns 0x00 (0000ms, 0388ms total)
T20EC 000:416 JLINK_GetDebugInfo(0x102 = JLINKARM_DEBUG_INFO_MTB_ADDR_INDEX) -- Value=0x00000000  returns 0x00 (0000ms, 0388ms total)
T20EC 000:416 JLINK_GetDebugInfo(0x103 = JLINKARM_DEBUG_INFO_TPIU_ADDR_INDEX) -- Value=0xE0040000  returns 0x00 (0000ms, 0388ms total)
T20EC 000:416 JLINK_GetDebugInfo(0x104 = JLINKARM_DEBUG_INFO_ITM_ADDR_INDEX) -- Value=0xE0000000  returns 0x00 (0000ms, 0388ms total)
T20EC 000:416 JLINK_GetDebugInfo(0x105 = JLINKARM_DEBUG_INFO_DWT_ADDR_INDEX) -- Value=0xE0001000  returns 0x00 (0000ms, 0388ms total)
T20EC 000:416 JLINK_GetDebugInfo(0x106 = JLINKARM_DEBUG_INFO_FPB_ADDR_INDEX) -- Value=0xE0002000  returns 0x00 (0000ms, 0388ms total)
T20EC 000:416 JLINK_GetDebugInfo(0x107 = JLINKARM_DEBUG_INFO_NVIC_ADDR_INDEX) -- Value=0xE000E000  returns 0x00 (0000ms, 0388ms total)
T20EC 000:416 JLINK_GetDebugInfo(0x10C = JLINKARM_DEBUG_INFO_DBG_ADDR_INDEX) -- Value=0xE000EDF0  returns 0x00 (0000ms, 0388ms total)
T20EC 000:416 JLINK_ReadMemU32(0xE000EF40, 0x0001 Items, ...) -- CPU_ReadMem(4 bytes @ 0xE000EF40) - Data: 21 00 11 10  returns 1 (0001ms, 0389ms total)
T20EC 000:417 JLINK_ReadMemU32(0xE000EF44, 0x0001 Items, ...) -- CPU_ReadMem(4 bytes @ 0xE000EF44) - Data: 11 00 00 11  returns 1 (0001ms, 0390ms total)
T20EC 000:418 JLINK_ReadMemU32(0xE000ED00, 0x0001 Items, ...) -- CPU_ReadMem(4 bytes @ 0xE000ED00) - Data: 41 C2 0F 41  returns 1 (0001ms, 0391ms total)
T20EC 000:419 JLINK_SetResetType(JLINKARM_CM3_RESET_TYPE_NORMAL)  returns JLINKARM_CM3_RESET_TYPE_NORMAL (0000ms, 0391ms total)
T20EC 000:419 JLINK_Reset() -- CPU is running -- CPU_WriteMem(4 bytes @ 0xE000EDF0) -- CPU is running -- CPU_WriteMem(4 bytes @ 0xE000EDFC)Reset: Halt core after reset via DEMCR.VC_CORERESET. >0x35 TIF>Reset: Reset device via AIRCR.SYSRESETREQ. -- CPU is running -- CPU_WriteMem(4 bytes @ 0xE000ED0C) >0x0D TIF> >0x28 TIF> -- CPU_ReadMem(4 bytes @ 0xE000EDF0) -- CPU_ReadMem(4 bytes @ 0xE000EDF0) -- CPU is running -- CPU_WriteMem(4 bytes @ 0xE000EDF0) -- CPU is running -- CPU_WriteMem(4 bytes @ 0xE000EDFC)
 -- CPU_ReadMem(4 bytes @ 0xE000EDF0) -- CPU_WriteMem(4 bytes @ 0xE0002000) -- CPU_ReadMem(4 bytes @ 0xE000EDFC) -- CPU_ReadMem(4 bytes @ 0xE0001000) (0073ms, 0464ms total)
T20EC 000:492 JLINK_ReadReg(R15 (PC))  returns 0x00000A80 (0000ms, 0464ms total)
T20EC 000:492 JLINK_ReadReg(XPSR)  returns 0x01000000 (0000ms, 0464ms total)
T20EC 000:492 JLINK_Halt()  returns 0x00 (0000ms, 0464ms total)
T20EC 000:492 JLINK_IsHalted()  returns TRUE (0000ms, 0464ms total)
T20EC 000:492 JLINK_ReadMemU32(0xE000EDF0, 0x0001 Items, ...) -- CPU_ReadMem(4 bytes @ 0xE000EDF0) - Data: 03 00 03 00  returns 1 (0001ms, 0465ms total)
T20EC 000:493 JLINK_WriteU32(0xE000EDF0, 0xA05F0003) -- CPU_WriteMem(4 bytes @ 0xE000EDF0)  returns 0 (0001ms, 0466ms total)
T20EC 000:494 JLINK_WriteU32(0xE000EDFC, 0x01000000) -- CPU_WriteMem(4 bytes @ 0xE000EDFC)  returns 0 (0001ms, 0467ms total)
T20EC 000:495 JLINK_GetHWStatus(...)  returns 0x00 (0001ms, 0468ms total)
T20EC 000:496 JLINK_GetNumBPUnits(Type = 0xFFFFFF00)  returns 0x06 (0000ms, 0468ms total)
T20EC 000:496 JLINK_GetNumBPUnits(Type = 0xF0)  returns 0x2000 (0000ms, 0468ms total)
T20EC 000:496 JLINK_GetNumWPUnits()  returns 0x04 (0000ms, 0468ms total)
T20EC 000:496 JLINK_GetSpeed()  returns 0xFA0 (0000ms, 0468ms total)
T20EC 000:496 JLINK_ReadMemU32(0xE000E004, 0x0001 Items, ...) -- CPU_ReadMem(4 bytes @ 0xE000E004) - Data: 01 00 00 00  returns 1 (0001ms, 0469ms total)
T20EC 000:497 JLINK_ReadMemU32(0xE000E004, 0x0001 Items, ...) -- CPU_ReadMem(4 bytes @ 0xE000E004) - Data: 01 00 00 00  returns 1 (0001ms, 0470ms total)
T20EC 000:498 JLINK_WriteMem(0xE0001000, 0x001C Bytes, ...) - Data: 01 00 00 00 00 00 00 00 00 00 00 00 00 00 00 00 ... -- CPU_WriteMem(28 bytes @ 0xE0001000)  returns 0x1C (0001ms, 0471ms total)
T20EC 000:499 JLINK_ReadMem (0xE0001000, 0x001C Bytes, ...) -- CPU_ReadMem(28 bytes @ 0xE0001000) - Data: 01 00 00 40 00 00 00 00 00 00 00 00 00 00 00 00 ...  returns 0x00 (0001ms, 0472ms total)
T20EC 000:500 JLINK_ReadReg(R15 (PC))  returns 0x00000A80 (0000ms, 0472ms total)
T20EC 000:500 JLINK_ReadReg(XPSR)  returns 0x01000000 (0000ms, 0472ms total)
T20EC 000:648 JLINK_SetResetType(JLINKARM_CM3_RESET_TYPE_NORMAL)  returns JLINKARM_CM3_RESET_TYPE_NORMAL (0000ms, 0472ms total)
T20EC 000:648 JLINK_Reset() -- CPU_WriteMem(4 bytes @ 0xE000EDF0) -- CPU_WriteMem(4 bytes @ 0xE000EDFC)Reset: Halt core after reset via DEMCR.VC_CORERESET. >0x35 TIF>Reset: Reset device via AIRCR.SYSRESETREQ. -- CPU_WriteMem(4 bytes @ 0xE000ED0C) >0x0D TIF> >0x28 TIF> -- CPU_ReadMem(4 bytes @ 0xE000EDF0) -- CPU_ReadMem(4 bytes @ 0xE000EDF0) -- CPU_WriteMem(4 bytes @ 0xE000EDF0) -- CPU_WriteMem(4 bytes @ 0xE000EDFC) -- CPU_ReadMem(4 bytes @ 0xE000EDF0) -- CPU_WriteMem(4 bytes @ 0xE0002000)
 -- CPU_ReadMem(4 bytes @ 0xE000EDFC) -- CPU_ReadMem(4 bytes @ 0xE0001000) (0074ms, 0546ms total)
T20EC 000:722 JLINK_ReadReg(R15 (PC))  returns 0x00000A80 (0000ms, 0546ms total)
T20EC 000:722 JLINK_ReadReg(XPSR)  returns 0x01000000 (0000ms, 0546ms total)
T20EC 000:722 JLINK_ReadMem (0x00000A80, 0x003C Bytes, ...) -- CPU_ReadMem(64 bytes @ 0x00000A80) -- Updating C cache (64 bytes @ 0x00000A80) -- Read from C cache (60 bytes @ 0x00000A80) - Data: 06 4B 18 47 06 4A 10 60 01 68 81 F3 08 88 40 68 ...  returns 0x00 (0002ms, 0548ms total)
T20EC 000:827 JLINK_ReadMem (0x40025000, 0x0004 Bytes, ...) -- CPU_ReadMem(4 bytes @ 0x40025000) - Data: 00 00 00 00  returns 0x00 (0000ms, 0548ms total)
T20EC 000:827 JLINK_ReadMem (0x40025004, 0x0004 Bytes, ...) -- CPU_ReadMem(4 bytes @ 0x40025004) - Data: 00 00 00 00  returns 0x00 (0001ms, 0549ms total)
T20EC 000:828 JLINK_ReadMem (0x40025104, 0x0004 Bytes, ...) -- CPU_ReadMem(4 bytes @ 0x40025104) - Data: 00 00 00 00  returns 0x00 (0001ms, 0550ms total)
T20EC 000:829 JLINK_ReadMem (0x40025108, 0x0004 Bytes, ...) -- CPU_ReadMem(4 bytes @ 0x40025108) - Data: 00 00 00 00  returns 0x00 (0001ms, 0551ms total)
T20EC 000:830 JLINK_ReadMem (0x40025114, 0x0004 Bytes, ...) -- CPU_ReadMem(4 bytes @ 0x40025114) - Data: 00 00 00 00  returns 0x00 (0001ms, 0552ms total)
T20EC 000:831 JLINK_ReadMem (0x40025300, 0x0008 Bytes, ...) -- CPU_ReadMem(8 bytes @ 0x40025300) - Data: 00 00 00 00 00 00 00 00  returns 0x00 (0001ms, 0553ms total)
T20EC 000:832 JLINK_ReadMem (0x40025308, 0x0004 Bytes, ...) -- CPU_ReadMem(4 bytes @ 0x40025308) - Data: 00 00 00 00  returns 0x00 (0001ms, 0554ms total)
T20EC 000:833 JLINK_ReadMem (0x40025500, 0x0028 Bytes, ...) -- CPU_ReadMem(40 bytes @ 0x40025500) - Data: 00 00 00 00 00 00 00 00 00 00 00 00 01 00 00 00 ...  returns 0x00 (0001ms, 0555ms total)
T20EC 000:834 JLINK_ReadMem (0x40025528, 0x0004 Bytes, ...) -- CPU_ReadMem(4 bytes @ 0x40025528) - Data: 00 00 00 00  returns 0x00 (0001ms, 0556ms total)
T20EC 000:835 JLINK_ReadMem (0x40025538, 0x0004 Bytes, ...) -- CPU_ReadMem(4 bytes @ 0x40025538) - Data: 00 00 00 00  returns 0x00 (0001ms, 0557ms total)
T20EC 000:836 JLINK_ReadMem (0x40025540, 0x0004 Bytes, ...) -- CPU_ReadMem(4 bytes @ 0x40025540) - Data: 00 00 00 00  returns 0x00 (0001ms, 0558ms total)
T20EC 000:837 JLINK_ReadMem (0x40025550, 0x0004 Bytes, ...) -- CPU_ReadMem(4 bytes @ 0x40025550) - Data: 00 00 00 00  returns 0x00 (0001ms, 0559ms total)
T20EC 000:838 JLINK_ReadMem (0x40025560, 0x0010 Bytes, ...) -- CPU_ReadMem(16 bytes @ 0x40025560) - Data: FF FF FF FF FF FF FF FF FF FF FF FF FF FF FF FF  returns 0x00 (0001ms, 0560ms total)
T20EC 000:839 JLINK_ReadMem (0x40025570, 0x0004 Bytes, ...) -- CPU_ReadMem(4 bytes @ 0x40025570) - Data: FF FF FF FF  returns 0x00 (0001ms, 0561ms total)
T20EC 000:876 JLINK_ReadMem (0x50000504, 0x0020 Bytes, ...) -- CPU_ReadMem(32 bytes @ 0x50000504) - Data: 00 00 00 00 00 00 00 00 00 00 00 00 00 00 00 00 ...  returns 0x00 (0001ms, 0562ms total)
T20EC 000:877 JLINK_ReadMem (0x50000524, 0x0004 Bytes, ...) -- CPU_ReadMem(4 bytes @ 0x50000524) - Data: 00 00 00 00  returns 0x00 (0001ms, 0563ms total)
T20EC 000:878 JLINK_ReadMem (0x50000700, 0x007C Bytes, ...) -- CPU_ReadMem(124 bytes @ 0x50000700) - Data: 02 00 00 00 02 00 00 00 02 00 00 00 02 00 00 00 ...  returns 0x00 (0002ms, 0565ms total)
T20EC 000:880 JLINK_ReadMem (0x5000077C, 0x0004 Bytes, ...) -- CPU_ReadMem(4 bytes @ 0x5000077C) - Data: 02 00 00 00  returns 0x00 (0001ms, 0566ms total)
T20EC 000:916 JLINK_ReadMem (0x40003000, 0x0004 Bytes, ...) -- CPU_ReadMem(4 bytes @ 0x40003000) - Data: 00 00 00 00  returns 0x00 (0000ms, 0566ms total)
T20EC 000:916 JLINK_ReadMem (0x40003008, 0x0004 Bytes, ...) -- CPU_ReadMem(4 bytes @ 0x40003008) - Data: 00 00 00 00  returns 0x00 (0001ms, 0567ms total)
T20EC 000:917 JLINK_ReadMem (0x40003014, 0x0004 Bytes, ...) -- CPU_ReadMem(4 bytes @ 0x40003014) - Data: 00 00 00 00  returns 0x00 (0001ms, 0568ms total)
T20EC 000:918 JLINK_ReadMem (0x4000301C, 0x0004 Bytes, ...) -- CPU_ReadMem(4 bytes @ 0x4000301C) - Data: 00 00 00 00  returns 0x00 (0001ms, 0569ms total)
T20EC 000:919 JLINK_ReadMem (0x40003020, 0x0004 Bytes, ...) -- CPU_ReadMem(4 bytes @ 0x40003020) - Data: 00 00 00 00  returns 0x00 (0001ms, 0570ms total)
T20EC 000:920 JLINK_ReadMem (0x40003104, 0x0004 Bytes, ...) -- CPU_ReadMem(4 bytes @ 0x40003104) - Data: 00 00 00 00  returns 0x00 (0001ms, 0571ms total)
T20EC 000:921 JLINK_ReadMem (0x40003108, 0x0004 Bytes, ...) -- CPU_ReadMem(4 bytes @ 0x40003108) - Data: 00 00 00 00  returns 0x00 (0001ms, 0572ms total)
T20EC 000:922 JLINK_ReadMem (0x4000311C, 0x0004 Bytes, ...) -- CPU_ReadMem(4 bytes @ 0x4000311C) - Data: 00 00 00 00  returns 0x00 (0001ms, 0573ms total)
T20EC 000:923 JLINK_ReadMem (0x40003124, 0x0004 Bytes, ...) -- CPU_ReadMem(4 bytes @ 0x40003124) - Data: 00 00 00 00  returns 0x00 (0001ms, 0574ms total)
T20EC 000:924 JLINK_ReadMem (0x40003138, 0x0004 Bytes, ...) -- CPU_ReadMem(4 bytes @ 0x40003138) - Data: 00 00 00 00  returns 0x00 (0001ms, 0575ms total)
T20EC 000:925 JLINK_ReadMem (0x40003148, 0x0004 Bytes, ...) -- CPU_ReadMem(4 bytes @ 0x40003148) - Data: 00 00 00 00  returns 0x00 (0001ms, 0576ms total)
T20EC 000:926 JLINK_ReadMem (0x40003200, 0x0004 Bytes, ...) -- CPU_ReadMem(4 bytes @ 0x40003200) - Data: 00 00 00 00  returns 0x00 (0001ms, 0577ms total)
T20EC 000:927 JLINK_ReadMem (0x40003304, 0x0004 Bytes, ...) -- CPU_ReadMem(4 bytes @ 0x40003304) - Data: 00 00 00 00  returns 0x00 (0001ms, 0578ms total)
T20EC 000:928 JLINK_ReadMem (0x40003308, 0x0004 Bytes, ...) -- CPU_ReadMem(4 bytes @ 0x40003308) - Data: 00 00 00 00  returns 0x00 (0001ms, 0579ms total)
T20EC 000:929 JLINK_ReadMem (0x400034C4, 0x0004 Bytes, ...) -- CPU_ReadMem(4 bytes @ 0x400034C4) - Data: 00 00 00 00  returns 0x00 (0001ms, 0580ms total)
T20EC 000:930 JLINK_ReadMem (0x40003500, 0x0004 Bytes, ...) -- CPU_ReadMem(4 bytes @ 0x40003500) - Data: 00 00 00 00  returns 0x00 (0001ms, 0581ms total)
T20EC 000:931 JLINK_ReadMem (0x40003508, 0x0004 Bytes, ...) -- CPU_ReadMem(4 bytes @ 0x40003508) - Data: FF FF FF FF  returns 0x00 (0001ms, 0582ms total)
T20EC 000:932 JLINK_ReadMem (0x4000350C, 0x0004 Bytes, ...) -- CPU_ReadMem(4 bytes @ 0x4000350C) - Data: FF FF FF FF  returns 0x00 (0001ms, 0583ms total)
T20EC 000:933 JLINK_ReadMem (0x4000351C, 0x0004 Bytes, ...) -- CPU_ReadMem(4 bytes @ 0x4000351C) - Data: 00 00 00 00  returns 0x00 (0001ms, 0584ms total)
T20EC 000:934 JLINK_ReadMem (0x40003524, 0x0004 Bytes, ...) -- CPU_ReadMem(4 bytes @ 0x40003524) - Data: 00 00 00 04  returns 0x00 (0001ms, 0585ms total)
T20EC 000:935 JLINK_ReadMem (0x40003588, 0x0004 Bytes, ...) -- CPU_ReadMem(4 bytes @ 0x40003588) - Data: 00 00 00 00  returns 0x00 (0001ms, 0586ms total)
T20EC 000:968 JLINK_ReadMem (0x40003000, 0x0004 Bytes, ...) -- CPU_ReadMem(4 bytes @ 0x40003000) - Data: 00 00 00 00  returns 0x00 (0001ms, 0587ms total)
T20EC 000:969 JLINK_ReadMem (0x40003008, 0x0004 Bytes, ...) -- CPU_ReadMem(4 bytes @ 0x40003008) - Data: 00 00 00 00  returns 0x00 (0001ms, 0588ms total)
T20EC 000:970 JLINK_ReadMem (0x40003014, 0x0004 Bytes, ...) -- CPU_ReadMem(4 bytes @ 0x40003014) - Data: 00 00 00 00  returns 0x00 (0001ms, 0589ms total)
T20EC 000:971 JLINK_ReadMem (0x4000301C, 0x0004 Bytes, ...) -- CPU_ReadMem(4 bytes @ 0x4000301C) - Data: 00 00 00 00  returns 0x00 (0001ms, 0590ms total)
T20EC 000:972 JLINK_ReadMem (0x40003020, 0x0004 Bytes, ...) -- CPU_ReadMem(4 bytes @ 0x40003020) - Data: 00 00 00 00  returns 0x00 (0001ms, 0591ms total)
T20EC 000:973 JLINK_ReadMem (0x40003104, 0x0004 Bytes, ...) -- CPU_ReadMem(4 bytes @ 0x40003104) - Data: 00 00 00 00  returns 0x00 (0001ms, 0592ms total)
T20EC 000:974 JLINK_ReadMem (0x40003124, 0x0004 Bytes, ...) -- CPU_ReadMem(4 bytes @ 0x40003124) - Data: 00 00 00 00  returns 0x00 (0001ms, 0593ms total)
T20EC 000:975 JLINK_ReadMem (0x40003148, 0x0008 Bytes, ...) -- CPU_ReadMem(8 bytes @ 0x40003148) - Data: 00 00 00 00 00 00 00 00  returns 0x00 (0001ms, 0594ms total)
T20EC 000:976 JLINK_ReadMem (0x40003150, 0x0004 Bytes, ...) -- CPU_ReadMem(4 bytes @ 0x40003150) - Data: 00 00 00 00  returns 0x00 (0001ms, 0595ms total)
T20EC 000:977 JLINK_ReadMem (0x4000315C, 0x0004 Bytes, ...) -- CPU_ReadMem(4 bytes @ 0x4000315C) - Data: 00 00 00 00  returns 0x00 (0001ms, 0596ms total)
T20EC 000:978 JLINK_ReadMem (0x40003160, 0x0004 Bytes, ...) -- CPU_ReadMem(4 bytes @ 0x40003160) - Data: 00 00 00 00  returns 0x00 (0001ms, 0597ms total)
T20EC 000:979 JLINK_ReadMem (0x40003200, 0x0004 Bytes, ...) -- CPU_ReadMem(4 bytes @ 0x40003200) - Data: 00 00 00 00  returns 0x00 (0001ms, 0598ms total)
T20EC 000:980 JLINK_ReadMem (0x40003300, 0x0008 Bytes, ...) -- CPU_ReadMem(8 bytes @ 0x40003300) - Data: 00 00 00 00 00 00 00 00  returns 0x00 (0001ms, 0599ms total)
T20EC 000:981 JLINK_ReadMem (0x40003308, 0x0004 Bytes, ...) -- CPU_ReadMem(4 bytes @ 0x40003308) - Data: 00 00 00 00  returns 0x00 (0000ms, 0599ms total)
T20EC 000:981 JLINK_ReadMem (0x400034C4, 0x0004 Bytes, ...) -- CPU_ReadMem(4 bytes @ 0x400034C4) - Data: 00 00 00 00  returns 0x00 (0001ms, 0600ms total)
T20EC 000:982 JLINK_ReadMem (0x40003500, 0x0004 Bytes, ...) -- CPU_ReadMem(4 bytes @ 0x40003500) - Data: 00 00 00 00  returns 0x00 (0001ms, 0601ms total)
T20EC 000:983 JLINK_ReadMem (0x40003508, 0x0004 Bytes, ...) -- CPU_ReadMem(4 bytes @ 0x40003508) - Data: FF FF FF FF  returns 0x00 (0001ms, 0602ms total)
T20EC 000:984 JLINK_ReadMem (0x4000350C, 0x0004 Bytes, ...) -- CPU_ReadMem(4 bytes @ 0x4000350C) - Data: FF FF FF FF  returns 0x00 (0001ms, 0603ms total)
T20EC 000:985 JLINK_ReadMem (0x40003524, 0x0004 Bytes, ...) -- CPU_ReadMem(4 bytes @ 0x40003524) - Data: 00 00 00 04  returns 0x00 (0001ms, 0604ms total)
T20EC 000:986 JLINK_ReadMem (0x40003534, 0x001C Bytes, ...) -- CPU_ReadMem(28 bytes @ 0x40003534) - Data: 00 00 00 00 00 00 00 00 00 00 00 00 00 00 00 00 ...  returns 0x00 (0001ms, 0605ms total)
T20EC 000:987 JLINK_ReadMem (0x40003550, 0x0004 Bytes, ...) -- CPU_ReadMem(4 bytes @ 0x40003550) - Data: 00 00 00 00  returns 0x00 (0001ms, 0606ms total)
T20EC 000:988 JLINK_ReadMem (0x40003588, 0x0004 Bytes, ...) -- CPU_ReadMem(4 bytes @ 0x40003588) - Data: 00 00 00 00  returns 0x00 (0001ms, 0607ms total)
T20EC 001:022 JLINK_ReadMem (0x40004000, 0x0004 Bytes, ...) -- CPU_ReadMem(4 bytes @ 0x40004000) - Data: 00 00 00 00  returns 0x00 (0000ms, 0607ms total)
T20EC 001:022 JLINK_ReadMem (0x40004008, 0x0004 Bytes, ...) -- CPU_ReadMem(4 bytes @ 0x40004008) - Data: 00 00 00 00  returns 0x00 (0001ms, 0608ms total)
T20EC 001:023 JLINK_ReadMem (0x40004014, 0x0004 Bytes, ...) -- CPU_ReadMem(4 bytes @ 0x40004014) - Data: 00 00 00 00  returns 0x00 (0001ms, 0609ms total)
T20EC 001:024 JLINK_ReadMem (0x4000401C, 0x0004 Bytes, ...) -- CPU_ReadMem(4 bytes @ 0x4000401C) - Data: 00 00 00 00  returns 0x00 (0001ms, 0610ms total)
T20EC 001:025 JLINK_ReadMem (0x40004020, 0x0004 Bytes, ...) -- CPU_ReadMem(4 bytes @ 0x40004020) - Data: 00 00 00 00  returns 0x00 (0001ms, 0611ms total)
T20EC 001:026 JLINK_ReadMem (0x40004104, 0x0004 Bytes, ...) -- CPU_ReadMem(4 bytes @ 0x40004104) - Data: 00 00 00 00  returns 0x00 (0001ms, 0612ms total)
T20EC 001:027 JLINK_ReadMem (0x40004124, 0x0004 Bytes, ...) -- CPU_ReadMem(4 bytes @ 0x40004124) - Data: 00 00 00 00  returns 0x00 (0001ms, 0613ms total)
T20EC 001:028 JLINK_ReadMem (0x40004148, 0x0008 Bytes, ...) -- CPU_ReadMem(8 bytes @ 0x40004148) - Data: 00 00 00 00 00 00 00 00  returns 0x00 (0001ms, 0614ms total)
T20EC 001:029 JLINK_ReadMem (0x40004150, 0x0004 Bytes, ...) -- CPU_ReadMem(4 bytes @ 0x40004150) - Data: 00 00 00 00  returns 0x00 (0001ms, 0615ms total)
T20EC 001:030 JLINK_ReadMem (0x4000415C, 0x0004 Bytes, ...) -- CPU_ReadMem(4 bytes @ 0x4000415C) - Data: 00 00 00 00  returns 0x00 (0001ms, 0616ms total)
T20EC 001:031 JLINK_ReadMem (0x40004160, 0x0004 Bytes, ...) -- CPU_ReadMem(4 bytes @ 0x40004160) - Data: 00 00 00 00  returns 0x00 (0001ms, 0617ms total)
T20EC 001:032 JLINK_ReadMem (0x40004200, 0x0004 Bytes, ...) -- CPU_ReadMem(4 bytes @ 0x40004200) - Data: 00 00 00 00  returns 0x00 (0001ms, 0618ms total)
T20EC 001:033 JLINK_ReadMem (0x40004300, 0x0008 Bytes, ...) -- CPU_ReadMem(8 bytes @ 0x40004300) - Data: 00 00 00 00 00 00 00 00  returns 0x00 (0001ms, 0619ms total)
T20EC 001:034 JLINK_ReadMem (0x40004308, 0x0004 Bytes, ...) -- CPU_ReadMem(4 bytes @ 0x40004308) - Data: 00 00 00 00  returns 0x00 (0001ms, 0620ms total)
T20EC 001:035 JLINK_ReadMem (0x400044C4, 0x0004 Bytes, ...) -- CPU_ReadMem(4 bytes @ 0x400044C4) - Data: 00 00 00 00  returns 0x00 (0001ms, 0621ms total)
T20EC 001:036 JLINK_ReadMem (0x40004500, 0x0004 Bytes, ...) -- CPU_ReadMem(4 bytes @ 0x40004500) - Data: 00 00 00 00  returns 0x00 (0001ms, 0622ms total)
T20EC 001:037 JLINK_ReadMem (0x40004508, 0x0004 Bytes, ...) -- CPU_ReadMem(4 bytes @ 0x40004508) - Data: FF FF FF FF  returns 0x00 (0001ms, 0623ms total)
T20EC 001:038 JLINK_ReadMem (0x4000450C, 0x0004 Bytes, ...) -- CPU_ReadMem(4 bytes @ 0x4000450C) - Data: FF FF FF FF  returns 0x00 (0001ms, 0624ms total)
T20EC 001:039 JLINK_ReadMem (0x40004524, 0x0004 Bytes, ...) -- CPU_ReadMem(4 bytes @ 0x40004524) - Data: 00 00 00 04  returns 0x00 (0001ms, 0625ms total)
T20EC 001:040 JLINK_ReadMem (0x40004534, 0x001C Bytes, ...) -- CPU_ReadMem(28 bytes @ 0x40004534) - Data: 00 00 00 00 00 00 00 00 00 00 00 00 00 00 00 00 ...  returns 0x00 (0001ms, 0626ms total)
T20EC 001:041 JLINK_ReadMem (0x40004550, 0x0004 Bytes, ...) -- CPU_ReadMem(4 bytes @ 0x40004550) - Data: 00 00 00 00  returns 0x00 (0001ms, 0627ms total)
T20EC 001:042 JLINK_ReadMem (0x40004588, 0x0004 Bytes, ...) -- CPU_ReadMem(4 bytes @ 0x40004588) - Data: 00 00 00 00  returns 0x00 (0001ms, 0628ms total)
T20EC 002:772 JLINK_ReadMem (0x20002ABC, 0x0004 Bytes, ...) -- CPU_ReadMem(64 bytes @ 0x20002A80) -- Updating C cache (64 bytes @ 0x20002A80) -- Read from C cache (4 bytes @ 0x20002ABC) - Data: 7A B6 08 00  returns 0x00 (0002ms, 0630ms total)
T20EC 002:787 JLINK_ReadMem (0x20003A29, 0x0001 Bytes, ...) -- CPU_ReadMem(64 bytes @ 0x20003A00) -- Updating C cache (64 bytes @ 0x20003A00) -- Read from C cache (1 bytes @ 0x20003A29) - Data: 00  returns 0x00 (0001ms, 0631ms total)
T20EC 002:805 JLINK_ReadMem (0x200035B4, 0x0004 Bytes, ...) -- CPU_ReadMem(64 bytes @ 0x20003580) -- Updating C cache (64 bytes @ 0x20003580) -- Read from C cache (4 bytes @ 0x200035B4) - Data: 00 00 00 00  returns 0x00 (0001ms, 0632ms total)
T20EC 002:811 JLINK_ReadMem (0x200035B8, 0x0004 Bytes, ...) -- Read from C cache (4 bytes @ 0x200035B8) - Data: 00 00 00 00  returns 0x00 (0000ms, 0632ms total)
T20EC 002:849 JLINK_ReadMem (0x200033F4, 0x0004 Bytes, ...) -- CPU_ReadMem(64 bytes @ 0x200033C0) -- Updating C cache (64 bytes @ 0x200033C0) -- Read from C cache (4 bytes @ 0x200033F4) - Data: 44 E0 E0 3E  returns 0x00 (0002ms, 0634ms total)
T20EC 002:858 JLINK_ReadMem (0x200033DC, 0x0004 Bytes, ...) -- Read from C cache (4 bytes @ 0x200033DC) - Data: 6E 00 00 00  returns 0x00 (0000ms, 0634ms total)
T20EC 002:865 JLINK_ReadMem (0x200033E4, 0x0004 Bytes, ...) -- Read from C cache (4 bytes @ 0x200033E4) - Data: 9B D0 B7 00  returns 0x00 (0000ms, 0634ms total)
T20EC 002:874 JLINK_ReadMem (0x200033E0, 0x0004 Bytes, ...) -- Read from C cache (4 bytes @ 0x200033E0) - Data: 9B D0 B7 00  returns 0x00 (0000ms, 0634ms total)
T20EC 002:882 JLINK_ReadMem (0x200033E8, 0x0004 Bytes, ...) -- Read from C cache (4 bytes @ 0x200033E8) - Data: D5 87 39 00  returns 0x00 (0000ms, 0634ms total)
T20EC 002:890 JLINK_ReadMem (0x200033F0, 0x0004 Bytes, ...) -- Read from C cache (4 bytes @ 0x200033F0) - Data: B9 CF B7 00  returns 0x00 (0000ms, 0634ms total)
T20EC 002:937 JLINK_ReadMem (0x200033CC, 0x0004 Bytes, ...) -- Read from C cache (4 bytes @ 0x200033CC) - Data: 00 00 00 00  returns 0x00 (0000ms, 0634ms total)
T20EC 002:947 JLINK_ReadMem (0x200033D0, 0x0004 Bytes, ...) -- Read from C cache (4 bytes @ 0x200033D0) - Data: 00 00 00 00  returns 0x00 (0000ms, 0634ms total)
T20EC 002:979 JLINK_ReadMem (0x20003A1C, 0x0004 Bytes, ...) -- Read from C cache (4 bytes @ 0x20003A1C) - Data: 00 00 00 00  returns 0x00 (0000ms, 0634ms total)
T20EC 002:990 JLINK_ReadMem (0x20003A20, 0x0004 Bytes, ...) -- Read from C cache (4 bytes @ 0x20003A20) - Data: 00 00 00 00  returns 0x00 (0000ms, 0634ms total)
T20EC 003:074 JLINK_ReadMem (0x20007498, 0x0010 Bytes, ...) -- CPU_ReadMem(64 bytes @ 0x20007480) -- Updating C cache (64 bytes @ 0x20007480) -- Read from C cache (16 bytes @ 0x20007498) - Data: 30 30 30 30 30 30 30 30 30 30 30 30 30 30 30 30  returns 0x00 (0001ms, 0635ms total)
T095C 003:285 JLINK_SetBPEx(Addr = 0x00033910, Type = 0xFFFFFFF2)  returns 0x00000001 (0000ms, 0635ms total)
T095C 003:285 JLINK_Go() -- CPU_WriteMem(4 bytes @ 0xE0002000) -- CPU_ReadMem(4 bytes @ 0xE0001000) -- CPU_WriteMem(4 bytes @ 0xE0002008) -- CPU_WriteMem(4 bytes @ 0xE000200C) -- CPU_WriteMem(4 bytes @ 0xE0002010) -- CPU_WriteMem(4 bytes @ 0xE0002014) -- CPU_WriteMem(4 bytes @ 0xE0002018) -- CPU_WriteMem(4 bytes @ 0xE000201C) -- CPU_WriteMem(4 bytes @ 0xE0001004) (0007ms, 0642ms total)
T095C 003:394 JLINK_IsHalted()  returns TRUE (0003ms, 0645ms total)
T095C 003:397 JLINK_Halt()  returns 0x00 (0000ms, 0642ms total)
T095C 003:397 JLINK_IsHalted()  returns TRUE (0000ms, 0642ms total)
T095C 003:398 JLINK_IsHalted()  returns TRUE (0000ms, 0642ms total)
T095C 003:398 JLINK_IsHalted()  returns TRUE (0000ms, 0642ms total)
T095C 003:398 JLINK_ReadReg(R15 (PC))  returns 0x00033910 (0000ms, 0642ms total)
T095C 003:398 JLINK_ReadReg(XPSR)  returns 0x61000000 (0000ms, 0642ms total)
T095C 003:398 JLINK_ClrBPEx(BPHandle = 0x00000001)  returns 0x00 (0000ms, 0642ms total)
T095C 003:398 JLINK_ReadMemU32(0xE000ED30, 0x0001 Items, ...) -- CPU_ReadMem(4 bytes @ 0xE000ED30) - Data: 02 00 00 00  returns 1 (0000ms, 0642ms total)
T095C 003:398 JLINK_ReadMemU32(0xE0001028, 0x0001 Items, ...) -- CPU_ReadMem(4 bytes @ 0xE0001028) - Data: 00 00 00 00  returns 1 (0001ms, 0643ms total)
T095C 003:399 JLINK_ReadMemU32(0xE0001038, 0x0001 Items, ...) -- CPU_ReadMem(4 bytes @ 0xE0001038) - Data: 00 02 00 00  returns 1 (0001ms, 0644ms total)
T095C 003:400 JLINK_ReadMemU32(0xE0001048, 0x0001 Items, ...) -- CPU_ReadMem(4 bytes @ 0xE0001048) - Data: 00 00 00 00  returns 1 (0001ms, 0645ms total)
T095C 003:401 JLINK_ReadMemU32(0xE0001058, 0x0001 Items, ...) -- CPU_ReadMem(4 bytes @ 0xE0001058) - Data: 00 00 00 00  returns 1 (0001ms, 0646ms total)
T095C 003:402 JLINK_ReadReg(R0)  returns 0x00033911 (0000ms, 0646ms total)
T095C 003:402 JLINK_ReadReg(R1)  returns 0x2000FB38 (0000ms, 0646ms total)
T095C 003:402 JLINK_ReadReg(R2)  returns 0x00000000 (0000ms, 0646ms total)
T095C 003:402 JLINK_ReadReg(R3)  returns 0x0002F35B (0000ms, 0646ms total)
T095C 003:402 JLINK_ReadReg(R4)  returns 0x0004330C (0000ms, 0646ms total)
T095C 003:402 JLINK_ReadReg(R5)  returns 0x0004330C (0000ms, 0646ms total)
T095C 003:402 JLINK_ReadReg(R6)  returns 0x10001000 (0000ms, 0646ms total)
T095C 003:402 JLINK_ReadReg(R7)  returns 0x00000000 (0001ms, 0647ms total)
T095C 003:403 JLINK_ReadReg(R8)  returns 0x00000000 (0000ms, 0647ms total)
T095C 003:403 JLINK_ReadReg(R9)  returns 0x00000000 (0000ms, 0647ms total)
T095C 003:403 JLINK_ReadReg(R10)  returns 0x00000000 (0000ms, 0647ms total)
T095C 003:403 JLINK_ReadReg(R11)  returns 0x00000000 (0000ms, 0647ms total)
T095C 003:403 JLINK_ReadReg(R12)  returns 0x00000000 (0000ms, 0647ms total)
T095C 003:403 JLINK_ReadReg(R13 (SP))  returns 0x2000FB38 (0000ms, 0647ms total)
T095C 003:403 JLINK_ReadReg(R14)  returns 0x00026545 (0000ms, 0647ms total)
T095C 003:403 JLINK_ReadReg(R15 (PC))  returns 0x00033910 (0000ms, 0647ms total)
T095C 003:403 JLINK_ReadReg(XPSR)  returns 0x61000000 (0000ms, 0647ms total)
T095C 003:403 JLINK_ReadReg(MSP)  returns 0x2000FB38 (0000ms, 0647ms total)
T095C 003:403 JLINK_ReadReg(PSP)  returns 0x00000000 (0000ms, 0647ms total)
T095C 003:403 JLINK_ReadReg(CFBP)  returns 0x00000000 (0000ms, 0647ms total)
T095C 003:403 JLINK_ReadReg(FPSCR)  returns 0x00000000 (0005ms, 0652ms total)
T095C 003:408 JLINK_ReadReg(FPS0)  returns 0x00000000 (0000ms, 0652ms total)
T095C 003:408 JLINK_ReadReg(FPS1)  returns 0x00000000 (0000ms, 0652ms total)
T095C 003:408 JLINK_ReadReg(FPS2)  returns 0x00000000 (0000ms, 0652ms total)
T095C 003:408 JLINK_ReadReg(FPS3)  returns 0x00000000 (0000ms, 0652ms total)
T095C 003:408 JLINK_ReadReg(FPS4)  returns 0x00000000 (0000ms, 0652ms total)
T095C 003:408 JLINK_ReadReg(FPS5)  returns 0x00000000 (0000ms, 0652ms total)
T095C 003:408 JLINK_ReadReg(FPS6)  returns 0x00000000 (0000ms, 0652ms total)
T095C 003:408 JLINK_ReadReg(FPS7)  returns 0x00000000 (0000ms, 0652ms total)
T095C 003:408 JLINK_ReadReg(FPS8)  returns 0x00000000 (0000ms, 0652ms total)
T095C 003:408 JLINK_ReadReg(FPS9)  returns 0x00000000 (0000ms, 0652ms total)
T095C 003:408 JLINK_ReadReg(FPS10)  returns 0x00000000 (0000ms, 0652ms total)
T095C 003:408 JLINK_ReadReg(FPS11)  returns 0x00000000 (0000ms, 0652ms total)
T095C 003:408 JLINK_ReadReg(FPS12)  returns 0x00000000 (0000ms, 0652ms total)
T095C 003:408 JLINK_ReadReg(FPS13)  returns 0x00000000 (0000ms, 0652ms total)
T095C 003:408 JLINK_ReadReg(FPS14)  returns 0x00000000 (0000ms, 0652ms total)
T095C 003:408 JLINK_ReadReg(FPS15)  returns 0x00000000 (0000ms, 0652ms total)
T095C 003:408 JLINK_ReadReg(FPS16)  returns 0x00000000 (0000ms, 0652ms total)
T095C 003:408 JLINK_ReadReg(FPS17)  returns 0x00000000 (0000ms, 0652ms total)
T095C 003:408 JLINK_ReadReg(FPS18)  returns 0x00000000 (0000ms, 0652ms total)
T095C 003:408 JLINK_ReadReg(FPS19)  returns 0x00000000 (0000ms, 0652ms total)
T095C 003:408 JLINK_ReadReg(FPS20)  returns 0x00000000 (0000ms, 0652ms total)
T095C 003:408 JLINK_ReadReg(FPS21)  returns 0x00000000 (0000ms, 0652ms total)
T095C 003:408 JLINK_ReadReg(FPS22)  returns 0x00000000 (0000ms, 0652ms total)
T095C 003:408 JLINK_ReadReg(FPS23)  returns 0x00000000 (0001ms, 0653ms total)
T095C 003:409 JLINK_ReadReg(FPS24)  returns 0x00000000 (0000ms, 0653ms total)
T095C 003:409 JLINK_ReadReg(FPS25)  returns 0x00000000 (0000ms, 0653ms total)
T095C 003:409 JLINK_ReadReg(FPS26)  returns 0x00000000 (0000ms, 0653ms total)
T095C 003:409 JLINK_ReadReg(FPS27)  returns 0x00000000 (0000ms, 0653ms total)
T095C 003:409 JLINK_ReadReg(FPS28)  returns 0x00000000 (0000ms, 0653ms total)
T095C 003:409 JLINK_ReadReg(FPS29)  returns 0x00000000 (0000ms, 0653ms total)
T095C 003:409 JLINK_ReadReg(FPS30)  returns 0x00000000 (0000ms, 0653ms total)
T095C 003:409 JLINK_ReadReg(FPS31)  returns 0x00000000 (0000ms, 0653ms total)
T20EC 003:409 JLINK_ReadMem (0x00000000, 0x0001 Bytes, ...) -- CPU_ReadMem(64 bytes @ 0x00000000) -- Updating C cache (64 bytes @ 0x00000000) -- Read from C cache (1 bytes @ 0x00000000) - Data: 00  returns 0x00 (0002ms, 0655ms total)
T20EC 003:411 JLINK_ReadMem (0x00000000, 0x0004 Bytes, ...) -- Read from C cache (4 bytes @ 0x00000000) - Data: 00 04 00 20  returns 0x00 (0000ms, 0655ms total)
T20EC 003:411 JLINK_ReadMemU32(0xE0001004, 0x0001 Items, ...) -- CPU_ReadMem(4 bytes @ 0xE0001004) - Data: 1F A4 01 00  returns 1 (0001ms, 0656ms total)
T20EC 003:412 JLINK_ReadMem (0x20002ABC, 0x0004 Bytes, ...) -- CPU_ReadMem(64 bytes @ 0x20002A80) -- Updating C cache (64 bytes @ 0x20002A80) -- Read from C cache (4 bytes @ 0x20002ABC) - Data: 00 00 00 00  returns 0x00 (0002ms, 0658ms total)
T20EC 003:414 JLINK_ReadMem (0x20003A29, 0x0001 Bytes, ...) -- CPU_ReadMem(64 bytes @ 0x20003A00) -- Updating C cache (64 bytes @ 0x20003A00) -- Read from C cache (1 bytes @ 0x20003A29) - Data: 00  returns 0x00 (0002ms, 0660ms total)
T20EC 003:416 JLINK_ReadMem (0x200035B4, 0x0004 Bytes, ...) -- CPU_ReadMem(64 bytes @ 0x20003580) -- Updating C cache (64 bytes @ 0x20003580) -- Read from C cache (4 bytes @ 0x200035B4) - Data: 00 00 00 00  returns 0x00 (0001ms, 0661ms total)
T20EC 003:417 JLINK_ReadMem (0x200035B8, 0x0004 Bytes, ...) -- Read from C cache (4 bytes @ 0x200035B8) - Data: 00 00 00 00  returns 0x00 (0000ms, 0661ms total)
T20EC 003:417 JLINK_ReadMem (0x200033F4, 0x0004 Bytes, ...) -- CPU_ReadMem(64 bytes @ 0x200033C0) -- Updating C cache (64 bytes @ 0x200033C0) -- Read from C cache (4 bytes @ 0x200033F4) - Data: 00 00 00 00  returns 0x00 (0002ms, 0663ms total)
T20EC 003:419 JLINK_ReadMem (0x200033DC, 0x0004 Bytes, ...) -- Read from C cache (4 bytes @ 0x200033DC) - Data: FF FF FF FF  returns 0x00 (0000ms, 0663ms total)
T20EC 003:419 JLINK_ReadMem (0x200033E4, 0x0004 Bytes, ...) -- Read from C cache (4 bytes @ 0x200033E4) - Data: 00 00 00 00  returns 0x00 (0000ms, 0663ms total)
T20EC 003:419 JLINK_ReadMem (0x200033E0, 0x0004 Bytes, ...) -- Read from C cache (4 bytes @ 0x200033E0) - Data: 00 00 00 00  returns 0x00 (0000ms, 0663ms total)
T20EC 003:419 JLINK_ReadMem (0x200033E8, 0x0004 Bytes, ...) -- Read from C cache (4 bytes @ 0x200033E8) - Data: 00 00 00 00  returns 0x00 (0000ms, 0663ms total)
T20EC 003:420 JLINK_ReadMem (0x200033F0, 0x0004 Bytes, ...) -- Read from C cache (4 bytes @ 0x200033F0) - Data: 00 00 00 00  returns 0x00 (0000ms, 0663ms total)
T20EC 003:420 JLINK_ReadMem (0x200033CC, 0x0004 Bytes, ...) -- Read from C cache (4 bytes @ 0x200033CC) - Data: 00 00 00 00  returns 0x00 (0000ms, 0663ms total)
T20EC 003:420 JLINK_ReadMem (0x200033D0, 0x0004 Bytes, ...) -- Read from C cache (4 bytes @ 0x200033D0) - Data: 00 00 00 00  returns 0x00 (0000ms, 0663ms total)
T20EC 003:421 JLINK_ReadMem (0x20003A1C, 0x0004 Bytes, ...) -- Read from C cache (4 bytes @ 0x20003A1C) - Data: 00 00 00 00  returns 0x00 (0000ms, 0663ms total)
T20EC 003:421 JLINK_ReadMem (0x20003A20, 0x0004 Bytes, ...) -- Read from C cache (4 bytes @ 0x20003A20) - Data: 00 00 00 00  returns 0x00 (0000ms, 0663ms total)
T20EC 003:423 JLINK_ReadMem (0x20007498, 0x0010 Bytes, ...) -- CPU_ReadMem(64 bytes @ 0x20007480) -- Updating C cache (64 bytes @ 0x20007480) -- Read from C cache (16 bytes @ 0x20007498) - Data: 00 00 00 00 00 00 00 00 00 00 00 00 00 00 00 00  returns 0x00 (0001ms, 0664ms total)
T20EC 003:438 JLINK_ReadMem (0x50000504, 0x0020 Bytes, ...) -- CPU_ReadMem(32 bytes @ 0x50000504) - Data: 00 00 00 00 00 00 00 00 00 00 00 00 00 00 20 00 ...  returns 0x00 (0001ms, 0665ms total)
T20EC 003:439 JLINK_ReadMem (0x50000524, 0x0004 Bytes, ...) -- CPU_ReadMem(4 bytes @ 0x50000524) - Data: 00 00 00 00  returns 0x00 (0001ms, 0666ms total)
T20EC 003:440 JLINK_ReadMem (0x50000700, 0x007C Bytes, ...) -- CPU_ReadMem(124 bytes @ 0x50000700) - Data: 02 00 00 00 02 00 00 00 02 00 00 00 02 00 00 00 ...  returns 0x00 (0002ms, 0668ms total)
T20EC 003:442 JLINK_ReadMem (0x5000077C, 0x0004 Bytes, ...) -- CPU_ReadMem(4 bytes @ 0x5000077C) - Data: 02 00 00 00  returns 0x00 (0001ms, 0669ms total)
T20EC 003:448 JLINK_ReadMem (0x40004000, 0x0004 Bytes, ...) -- CPU_ReadMem(4 bytes @ 0x40004000) - Data: 00 00 00 00  returns 0x00 (0001ms, 0670ms total)
T20EC 003:449 JLINK_ReadMem (0x40004008, 0x0004 Bytes, ...) -- CPU_ReadMem(4 bytes @ 0x40004008) - Data: 00 00 00 00  returns 0x00 (0001ms, 0671ms total)
T20EC 003:450 JLINK_ReadMem (0x40004014, 0x0004 Bytes, ...) -- CPU_ReadMem(4 bytes @ 0x40004014) - Data: 00 00 00 00  returns 0x00 (0001ms, 0672ms total)
T20EC 003:451 JLINK_ReadMem (0x4000401C, 0x0004 Bytes, ...) -- CPU_ReadMem(4 bytes @ 0x4000401C) - Data: 00 00 00 00  returns 0x00 (0001ms, 0673ms total)
T20EC 003:452 JLINK_ReadMem (0x40004020, 0x0004 Bytes, ...) -- CPU_ReadMem(4 bytes @ 0x40004020) - Data: 00 00 00 00  returns 0x00 (0001ms, 0674ms total)
T20EC 003:453 JLINK_ReadMem (0x40004104, 0x0004 Bytes, ...) -- CPU_ReadMem(4 bytes @ 0x40004104) - Data: 00 00 00 00  returns 0x00 (0001ms, 0675ms total)
T20EC 003:454 JLINK_ReadMem (0x40004124, 0x0004 Bytes, ...) -- CPU_ReadMem(4 bytes @ 0x40004124) - Data: 00 00 00 00  returns 0x00 (0001ms, 0676ms total)
T20EC 003:455 JLINK_ReadMem (0x40004148, 0x0008 Bytes, ...) -- CPU_ReadMem(8 bytes @ 0x40004148) - Data: 00 00 00 00 00 00 00 00  returns 0x00 (0001ms, 0677ms total)
T20EC 003:456 JLINK_ReadMem (0x40004150, 0x0004 Bytes, ...) -- CPU_ReadMem(4 bytes @ 0x40004150) - Data: 00 00 00 00  returns 0x00 (0001ms, 0678ms total)
T20EC 003:457 JLINK_ReadMem (0x4000415C, 0x0004 Bytes, ...) -- CPU_ReadMem(4 bytes @ 0x4000415C) - Data: 00 00 00 00  returns 0x00 (0001ms, 0679ms total)
T20EC 003:458 JLINK_ReadMem (0x40004160, 0x0004 Bytes, ...) -- CPU_ReadMem(4 bytes @ 0x40004160) - Data: 00 00 00 00  returns 0x00 (0000ms, 0679ms total)
T20EC 003:458 JLINK_ReadMem (0x40004200, 0x0004 Bytes, ...) -- CPU_ReadMem(4 bytes @ 0x40004200) - Data: 00 00 00 00  returns 0x00 (0001ms, 0680ms total)
T20EC 003:459 JLINK_ReadMem (0x40004300, 0x0008 Bytes, ...) -- CPU_ReadMem(8 bytes @ 0x40004300) - Data: 00 00 00 00 00 00 00 00  returns 0x00 (0001ms, 0681ms total)
T20EC 003:460 JLINK_ReadMem (0x40004308, 0x0004 Bytes, ...) -- CPU_ReadMem(4 bytes @ 0x40004308) - Data: 00 00 00 00  returns 0x00 (0001ms, 0682ms total)
T20EC 003:461 JLINK_ReadMem (0x400044C4, 0x0004 Bytes, ...) -- CPU_ReadMem(4 bytes @ 0x400044C4) - Data: 00 00 00 00  returns 0x00 (0001ms, 0683ms total)
T20EC 003:462 JLINK_ReadMem (0x40004500, 0x0004 Bytes, ...) -- CPU_ReadMem(4 bytes @ 0x40004500) - Data: 00 00 00 00  returns 0x00 (0001ms, 0684ms total)
T20EC 003:463 JLINK_ReadMem (0x40004508, 0x0004 Bytes, ...) -- CPU_ReadMem(4 bytes @ 0x40004508) - Data: FF FF FF FF  returns 0x00 (0001ms, 0685ms total)
T20EC 003:464 JLINK_ReadMem (0x4000450C, 0x0004 Bytes, ...) -- CPU_ReadMem(4 bytes @ 0x4000450C) - Data: FF FF FF FF  returns 0x00 (0001ms, 0686ms total)
T20EC 003:465 JLINK_ReadMem (0x40004524, 0x0004 Bytes, ...) -- CPU_ReadMem(4 bytes @ 0x40004524) - Data: 00 00 00 04  returns 0x00 (0001ms, 0687ms total)
T20EC 003:466 JLINK_ReadMem (0x40004534, 0x001C Bytes, ...) -- CPU_ReadMem(28 bytes @ 0x40004534) - Data: 00 00 00 00 00 00 00 00 00 00 00 00 00 00 00 00 ...  returns 0x00 (0001ms, 0688ms total)
T20EC 003:467 JLINK_ReadMem (0x40004550, 0x0004 Bytes, ...) -- CPU_ReadMem(4 bytes @ 0x40004550) - Data: 00 00 00 00  returns 0x00 (0001ms, 0689ms total)
T20EC 003:468 JLINK_ReadMem (0x40004588, 0x0004 Bytes, ...) -- CPU_ReadMem(4 bytes @ 0x40004588) - Data: 00 00 00 00  returns 0x00 (0001ms, 0690ms total)
T20EC 003:469 JLINK_ReadMem (0x40003000, 0x0004 Bytes, ...) -- CPU_ReadMem(4 bytes @ 0x40003000) - Data: 00 00 00 00  returns 0x00 (0001ms, 0691ms total)
T20EC 003:470 JLINK_ReadMem (0x40003008, 0x0004 Bytes, ...) -- CPU_ReadMem(4 bytes @ 0x40003008) - Data: 00 00 00 00  returns 0x00 (0001ms, 0692ms total)
T20EC 003:471 JLINK_ReadMem (0x40003014, 0x0004 Bytes, ...) -- CPU_ReadMem(4 bytes @ 0x40003014) - Data: 00 00 00 00  returns 0x00 (0001ms, 0693ms total)
T20EC 003:472 JLINK_ReadMem (0x4000301C, 0x0004 Bytes, ...) -- CPU_ReadMem(4 bytes @ 0x4000301C) - Data: 00 00 00 00  returns 0x00 (0000ms, 0693ms total)
T20EC 003:472 JLINK_ReadMem (0x40003020, 0x0004 Bytes, ...) -- CPU_ReadMem(4 bytes @ 0x40003020) - Data: 00 00 00 00  returns 0x00 (0001ms, 0694ms total)
T20EC 003:473 JLINK_ReadMem (0x40003104, 0x0004 Bytes, ...) -- CPU_ReadMem(4 bytes @ 0x40003104) - Data: 00 00 00 00  returns 0x00 (0001ms, 0695ms total)
T20EC 003:474 JLINK_ReadMem (0x40003108, 0x0004 Bytes, ...) -- CPU_ReadMem(4 bytes @ 0x40003108) - Data: 00 00 00 00  returns 0x00 (0001ms, 0696ms total)
T20EC 003:475 JLINK_ReadMem (0x4000311C, 0x0004 Bytes, ...) -- CPU_ReadMem(4 bytes @ 0x4000311C) - Data: 00 00 00 00  returns 0x00 (0001ms, 0697ms total)
T20EC 003:476 JLINK_ReadMem (0x40003124, 0x0004 Bytes, ...) -- CPU_ReadMem(4 bytes @ 0x40003124) - Data: 00 00 00 00  returns 0x00 (0001ms, 0698ms total)
T20EC 003:477 JLINK_ReadMem (0x40003138, 0x0004 Bytes, ...) -- CPU_ReadMem(4 bytes @ 0x40003138) - Data: 00 00 00 00  returns 0x00 (0001ms, 0699ms total)
T20EC 003:478 JLINK_ReadMem (0x40003148, 0x0004 Bytes, ...) -- CPU_ReadMem(4 bytes @ 0x40003148) - Data: 00 00 00 00  returns 0x00 (0001ms, 0700ms total)
T20EC 003:479 JLINK_ReadMem (0x40003200, 0x0004 Bytes, ...) -- CPU_ReadMem(4 bytes @ 0x40003200) - Data: 00 00 00 00  returns 0x00 (0001ms, 0701ms total)
T20EC 003:480 JLINK_ReadMem (0x40003304, 0x0004 Bytes, ...) -- CPU_ReadMem(4 bytes @ 0x40003304) - Data: 00 00 00 00  returns 0x00 (0001ms, 0702ms total)
T20EC 003:481 JLINK_ReadMem (0x40003308, 0x0004 Bytes, ...) -- CPU_ReadMem(4 bytes @ 0x40003308) - Data: 00 00 00 00  returns 0x00 (0001ms, 0703ms total)
T20EC 003:482 JLINK_ReadMem (0x400034C4, 0x0004 Bytes, ...) -- CPU_ReadMem(4 bytes @ 0x400034C4) - Data: 00 00 00 00  returns 0x00 (0001ms, 0704ms total)
T20EC 003:483 JLINK_ReadMem (0x40003500, 0x0004 Bytes, ...) -- CPU_ReadMem(4 bytes @ 0x40003500) - Data: 00 00 00 00  returns 0x00 (0001ms, 0705ms total)
T20EC 003:484 JLINK_ReadMem (0x40003508, 0x0004 Bytes, ...) -- CPU_ReadMem(4 bytes @ 0x40003508) - Data: FF FF FF FF  returns 0x00 (0001ms, 0706ms total)
T20EC 003:485 JLINK_ReadMem (0x4000350C, 0x0004 Bytes, ...) -- CPU_ReadMem(4 bytes @ 0x4000350C) - Data: FF FF FF FF  returns 0x00 (0000ms, 0706ms total)
T20EC 003:485 JLINK_ReadMem (0x4000351C, 0x0004 Bytes, ...) -- CPU_ReadMem(4 bytes @ 0x4000351C) - Data: 00 00 00 00  returns 0x00 (0001ms, 0707ms total)
T20EC 003:486 JLINK_ReadMem (0x40003524, 0x0004 Bytes, ...) -- CPU_ReadMem(4 bytes @ 0x40003524) - Data: 00 00 00 04  returns 0x00 (0001ms, 0708ms total)
T20EC 003:487 JLINK_ReadMem (0x40003588, 0x0004 Bytes, ...) -- CPU_ReadMem(4 bytes @ 0x40003588) - Data: 00 00 00 00  returns 0x00 (0001ms, 0709ms total)
T20EC 003:489 JLINK_ReadMem (0x40025000, 0x0004 Bytes, ...) -- CPU_ReadMem(4 bytes @ 0x40025000) - Data: 00 00 00 00  returns 0x00 (0000ms, 0709ms total)
T20EC 003:489 JLINK_ReadMem (0x40025004, 0x0004 Bytes, ...) -- CPU_ReadMem(4 bytes @ 0x40025004) - Data: 00 00 00 00  returns 0x00 (0001ms, 0710ms total)
T20EC 003:490 JLINK_ReadMem (0x40025104, 0x0004 Bytes, ...) -- CPU_ReadMem(4 bytes @ 0x40025104) - Data: 00 00 00 00  returns 0x00 (0001ms, 0711ms total)
T20EC 003:491 JLINK_ReadMem (0x40025108, 0x0004 Bytes, ...) -- CPU_ReadMem(4 bytes @ 0x40025108) - Data: 00 00 00 00  returns 0x00 (0001ms, 0712ms total)
T20EC 003:492 JLINK_ReadMem (0x40025114, 0x0004 Bytes, ...) -- CPU_ReadMem(4 bytes @ 0x40025114) - Data: 00 00 00 00  returns 0x00 (0001ms, 0713ms total)
T20EC 003:493 JLINK_ReadMem (0x40025300, 0x0008 Bytes, ...) -- CPU_ReadMem(8 bytes @ 0x40025300) - Data: 00 00 00 00 00 00 00 00  returns 0x00 (0001ms, 0714ms total)
T20EC 003:494 JLINK_ReadMem (0x40025308, 0x0004 Bytes, ...) -- CPU_ReadMem(4 bytes @ 0x40025308) - Data: 00 00 00 00  returns 0x00 (0001ms, 0715ms total)
T20EC 003:495 JLINK_ReadMem (0x40025500, 0x0028 Bytes, ...) -- CPU_ReadMem(40 bytes @ 0x40025500) - Data: 00 00 00 00 00 00 00 00 00 00 00 00 01 00 00 00 ...  returns 0x00 (0001ms, 0716ms total)
T20EC 003:496 JLINK_ReadMem (0x40025528, 0x0004 Bytes, ...) -- CPU_ReadMem(4 bytes @ 0x40025528) - Data: 00 00 00 00  returns 0x00 (0001ms, 0717ms total)
T20EC 003:497 JLINK_ReadMem (0x40025538, 0x0004 Bytes, ...) -- CPU_ReadMem(4 bytes @ 0x40025538) - Data: 00 00 00 00  returns 0x00 (0001ms, 0718ms total)
T20EC 003:498 JLINK_ReadMem (0x40025540, 0x0004 Bytes, ...) -- CPU_ReadMem(4 bytes @ 0x40025540) - Data: 00 00 00 00  returns 0x00 (0001ms, 0719ms total)
T20EC 003:499 JLINK_ReadMem (0x40025550, 0x0004 Bytes, ...) -- CPU_ReadMem(4 bytes @ 0x40025550) - Data: 00 00 00 00  returns 0x00 (0001ms, 0720ms total)
T20EC 003:500 JLINK_ReadMem (0x40025560, 0x0010 Bytes, ...) -- CPU_ReadMem(16 bytes @ 0x40025560) - Data: FF FF FF FF FF FF FF FF FF FF FF FF FF FF FF FF  returns 0x00 (0001ms, 0721ms total)
T20EC 003:501 JLINK_ReadMem (0x40025570, 0x0004 Bytes, ...) -- CPU_ReadMem(4 bytes @ 0x40025570) - Data: FF FF FF FF  returns 0x00 (0001ms, 0722ms total)
T20EC 003:502 JLINK_ReadMem (0x40003000, 0x0004 Bytes, ...) -- CPU_ReadMem(4 bytes @ 0x40003000) - Data: 00 00 00 00  returns 0x00 (0001ms, 0723ms total)
T20EC 003:503 JLINK_ReadMem (0x40003008, 0x0004 Bytes, ...) -- CPU_ReadMem(4 bytes @ 0x40003008) - Data: 00 00 00 00  returns 0x00 (0001ms, 0724ms total)
T20EC 003:504 JLINK_ReadMem (0x40003014, 0x0004 Bytes, ...) -- CPU_ReadMem(4 bytes @ 0x40003014) - Data: 00 00 00 00  returns 0x00 (0001ms, 0725ms total)
T20EC 003:505 JLINK_ReadMem (0x4000301C, 0x0004 Bytes, ...) -- CPU_ReadMem(4 bytes @ 0x4000301C) - Data: 00 00 00 00  returns 0x00 (0001ms, 0726ms total)
T20EC 003:506 JLINK_ReadMem (0x40003020, 0x0004 Bytes, ...) -- CPU_ReadMem(4 bytes @ 0x40003020) - Data: 00 00 00 00  returns 0x00 (0001ms, 0727ms total)
T20EC 003:507 JLINK_ReadMem (0x40003104, 0x0004 Bytes, ...) -- CPU_ReadMem(4 bytes @ 0x40003104) - Data: 00 00 00 00  returns 0x00 (0001ms, 0728ms total)
T20EC 003:508 JLINK_ReadMem (0x40003124, 0x0004 Bytes, ...) -- CPU_ReadMem(4 bytes @ 0x40003124) - Data: 00 00 00 00  returns 0x00 (0001ms, 0729ms total)
T20EC 003:509 JLINK_ReadMem (0x40003148, 0x0008 Bytes, ...) -- CPU_ReadMem(8 bytes @ 0x40003148) - Data: 00 00 00 00 00 00 00 00  returns 0x00 (0001ms, 0730ms total)
T20EC 003:510 JLINK_ReadMem (0x40003150, 0x0004 Bytes, ...) -- CPU_ReadMem(4 bytes @ 0x40003150) - Data: 00 00 00 00  returns 0x00 (0001ms, 0731ms total)
T20EC 003:511 JLINK_ReadMem (0x4000315C, 0x0004 Bytes, ...) -- CPU_ReadMem(4 bytes @ 0x4000315C) - Data: 00 00 00 00  returns 0x00 (0001ms, 0732ms total)
T20EC 003:512 JLINK_ReadMem (0x40003160, 0x0004 Bytes, ...) -- CPU_ReadMem(4 bytes @ 0x40003160) - Data: 00 00 00 00  returns 0x00 (0001ms, 0733ms total)
T20EC 003:513 JLINK_ReadMem (0x40003200, 0x0004 Bytes, ...) -- CPU_ReadMem(4 bytes @ 0x40003200) - Data: 00 00 00 00  returns 0x00 (0000ms, 0733ms total)
T20EC 003:513 JLINK_ReadMem (0x40003300, 0x0008 Bytes, ...) -- CPU_ReadMem(8 bytes @ 0x40003300) - Data: 00 00 00 00 00 00 00 00  returns 0x00 (0001ms, 0734ms total)
T20EC 003:515 JLINK_ReadMem (0x40003308, 0x0004 Bytes, ...) -- CPU_ReadMem(4 bytes @ 0x40003308) - Data: 00 00 00 00  returns 0x00 (0000ms, 0734ms total)
T20EC 003:515 JLINK_ReadMem (0x400034C4, 0x0004 Bytes, ...) -- CPU_ReadMem(4 bytes @ 0x400034C4) - Data: 00 00 00 00  returns 0x00 (0001ms, 0735ms total)
T20EC 003:516 JLINK_ReadMem (0x40003500, 0x0004 Bytes, ...) -- CPU_ReadMem(4 bytes @ 0x40003500) - Data: 00 00 00 00  returns 0x00 (0001ms, 0736ms total)
T20EC 003:517 JLINK_ReadMem (0x40003508, 0x0004 Bytes, ...) -- CPU_ReadMem(4 bytes @ 0x40003508) - Data: FF FF FF FF  returns 0x00 (0001ms, 0737ms total)
T20EC 003:518 JLINK_ReadMem (0x4000350C, 0x0004 Bytes, ...) -- CPU_ReadMem(4 bytes @ 0x4000350C) - Data: FF FF FF FF  returns 0x00 (0001ms, 0738ms total)
T20EC 003:519 JLINK_ReadMem (0x40003524, 0x0004 Bytes, ...) -- CPU_ReadMem(4 bytes @ 0x40003524) - Data: 00 00 00 04  returns 0x00 (0001ms, 0739ms total)
T20EC 003:520 JLINK_ReadMem (0x40003534, 0x001C Bytes, ...) -- CPU_ReadMem(28 bytes @ 0x40003534) - Data: 00 00 00 00 00 00 00 00 00 00 00 00 00 00 00 00 ...  returns 0x00 (0001ms, 0740ms total)
T20EC 003:521 JLINK_ReadMem (0x40003550, 0x0004 Bytes, ...) -- CPU_ReadMem(4 bytes @ 0x40003550) - Data: 00 00 00 00  returns 0x00 (0001ms, 0741ms total)
T20EC 003:522 JLINK_ReadMem (0x40003588, 0x0004 Bytes, ...) -- CPU_ReadMem(4 bytes @ 0x40003588) - Data: 00 00 00 00  returns 0x00 (0001ms, 0742ms total)
T095C 004:056 JLINK_Go() -- CPU_ReadMem(4 bytes @ 0xE0001000) -- CPU_WriteMem(4 bytes @ 0xE0002008) (0004ms, 0746ms total)
T095C 004:161 JLINK_IsHalted()  returns FALSE (0000ms, 0746ms total)
T095C 004:261 JLINK_IsHalted()  returns FALSE (0000ms, 0746ms total)
T095C 004:362 JLINK_IsHalted()  returns FALSE (0000ms, 0746ms total)
T095C 004:463 JLINK_IsHalted()  returns FALSE (0000ms, 0746ms total)
T095C 004:564 JLINK_IsHalted()  returns FALSE (0000ms, 0746ms total)
T095C 004:664 JLINK_ReadMemU32(0xE0001004, 0x0001 Items, ...) -- CPU_ReadMem(4 bytes @ 0xE0001004) - Data: 8A 02 50 02  returns 1 (0000ms, 0746ms total)
T20EC 004:664 JLINK_ReadMem (0x20002ABC, 0x0004 Bytes, ...) -- CPU_ReadMem(4 bytes @ 0x20002ABC) - Data: 17 17 00 00  returns 0x00 (0001ms, 0747ms total)
T20EC 004:666 JLINK_ReadMem (0x20003A29, 0x0001 Bytes, ...) -- CPU_ReadMem(1 bytes @ 0x20003A29) - Data: 00  returns 0x00 (0001ms, 0748ms total)
